T405C 000:048.918   SEGGER J-Link V7.52b Log File
T405C 000:049.242   DLL Compiled: Aug  3 2021 16:53:06
T405C 000:049.251   Logging started @ 2023-11-26 09:23
T405C 000:049.257 - 49.262ms
T405C 000:049.291 JLINK_SetWarnOutHandler(...)
T405C 000:049.303 - 0.016ms
T405C 000:049.313 JLINK_OpenEx(...)
T405C 000:052.684   Firmware: J-Link ARM-OB STM32 compiled Aug 22 2012 19:52:04
T405C 000:053.132   Firmware: J-Link ARM-OB STM32 compiled Aug 22 2012 19:52:04
T405C 000:055.406   Hardware: V7.00
T405C 000:055.423   S/N: 20090928
T405C 000:055.433   OEM: SEGGER
T405C 000:055.442   Feature(s): RDI,FlashDL,FlashBP,JFlash,GDB
T405C 000:056.570   TELNET listener socket opened on port 19021
T405C 000:056.712   WEBSRV Starting webserver
T405C 000:057.015   WEBSRV Webserver running on local port 19080
T405C 000:074.172 - 24.886ms returns "O.K."
T405C 000:074.225 JLINK_GetEmuCaps()
T405C 000:074.234 - 0.013ms returns 0x88EA5833
T405C 000:074.248 JLINK_TIF_GetAvailable(...)
T405C 000:074.470 - 0.229ms
T405C 000:074.487 JLINK_SetErrorOutHandler(...)
T405C 000:074.493 - 0.008ms
T405C 000:074.523 JLINK_ExecCommand("ProjectFile = "D:\Hiwonder\CubeMx\uart_test\MDK-ARM\JLinkSettings.ini"", ...). 
T405C 000:090.849   Ref file found at: D:\Keil_v5\ARM\Segger\JLinkDevices.ref
T405C 000:090.947   XML referenced by ref file: C:\Program Files\SEGGER\JLink\JLinkDevices.xml
T405C 000:091.873   C:\Program Files\SEGGER\JLink\JLinkDevices.xml evaluated successfully.
T405C 000:138.681 - 64.169ms returns 0x00
T405C 000:140.496 JLINK_ExecCommand("Device = STM32F401VETx", ...). 
T405C 000:142.906   Device "STM32F401VE" selected.
T405C 000:143.211 - 2.708ms returns 0x00
T405C 000:143.225 JLINK_ExecCommand("DisableConnectionTimeout", ...). 
T405C 000:143.235 - 0.005ms returns 0x01
T405C 000:143.243 JLINK_GetHardwareVersion()
T405C 000:143.248 - 0.008ms returns 70000
T405C 000:143.259 JLINK_GetDLLVersion()
T405C 000:143.264 - 0.007ms returns 75202
T405C 000:143.271 JLINK_GetOEMString(...)
T405C 000:143.278 JLINK_GetFirmwareString(...)
T405C 000:143.284 - 0.008ms
T405C 000:150.061 JLINK_GetDLLVersion()
T405C 000:150.099 - 0.041ms returns 75202
T405C 000:150.127 JLINK_GetCompileDateTime()
T405C 000:150.133 - 0.008ms
T405C 000:152.398 JLINK_GetFirmwareString(...)
T405C 000:152.428 - 0.032ms
T405C 000:153.716 JLINK_GetHardwareVersion()
T405C 000:153.726 - 0.027ms returns 70000
T405C 000:155.080 JLINK_GetSN()
T405C 000:155.092 - 0.014ms returns 20090928
T405C 000:156.348 JLINK_GetOEMString(...)
T405C 000:159.637 JLINK_TIF_Select(JLINKARM_TIF_SWD)
T405C 000:160.302 - 0.672ms returns 0x00
T405C 000:160.316 JLINK_HasError()
T405C 000:160.336 JLINK_SetSpeed(10000)
T405C 000:160.493 - 0.188ms
T405C 000:160.545 JLINK_GetId()
T405C 000:177.515   InitTarget() start
T405C 000:177.560    J-Link Script File: Executing InitTarget()
T405C 000:200.424   InitTarget() end
T405C 000:204.840   Found SW-DP with ID 0x2BA01477
T405C 000:209.239   Old FW that does not support reading DPIDR via DAP jobs
T405C 000:218.449   DPv0 detected
T405C 000:222.752   Scanning AP map to find all available APs
T405C 000:234.120   AP[1]: Stopped AP scan as end of AP map has been reached
T405C 000:237.717   AP[0]: AHB-AP (IDR: 0x24770011)
T405C 000:242.077   Iterating through AP map to find AHB-AP to use
T405C 000:252.243   AP[0]: Core found
T405C 000:257.817   AP[0]: AHB-AP ROM base: 0xE00FF000
T405C 000:266.178   CPUID register: 0x410FC241. Implementer code: 0x41 (ARM)
T405C 000:269.478   Found Cortex-M4 r0p1, Little endian.
T405C 000:370.957   -- Max. mem block: 0x00002C18
T405C 000:371.210   CPU_ReadMem(4 bytes @ 0xE000EDF0)
T405C 000:371.779   CPU_ReadMem(4 bytes @ 0xE0002000)
T405C 000:379.603   FPUnit: 6 code (BP) slots and 2 literal slots
T405C 000:379.638   CPU_ReadMem(4 bytes @ 0xE000EDFC)
T405C 000:380.216   CPU_WriteMem(4 bytes @ 0xE000EDFC)
T405C 000:380.818   CPU_ReadMem(4 bytes @ 0xE0001000)
T405C 000:381.360   CPU_WriteMem(4 bytes @ 0xE0001000)
T405C 000:381.950   CPU_ReadMem(4 bytes @ 0xE000ED88)
T405C 000:382.518   CPU_WriteMem(4 bytes @ 0xE000ED88)
T405C 000:383.188   CPU_ReadMem(4 bytes @ 0xE000ED88)
T405C 000:383.724   CPU_WriteMem(4 bytes @ 0xE000ED88)
T405C 000:393.080   CoreSight components:
T405C 000:402.330   ROMTbl[0] @ E00FF000
T405C 000:402.376   CPU_ReadMem(64 bytes @ 0xE00FF000)
T405C 000:403.552   CPU_ReadMem(32 bytes @ 0xE000EFE0)
T405C 000:411.445   ROMTbl[0][0]: E000E000, CID: B105E00D, PID: 000BB00C SCS-M7
T405C 000:411.483   CPU_ReadMem(32 bytes @ 0xE0001FE0)
T405C 000:419.326   ROMTbl[0][1]: E0001000, CID: B105E00D, PID: 003BB002 DWT
T405C 000:419.377   CPU_ReadMem(32 bytes @ 0xE0002FE0)
T405C 000:424.485   ROMTbl[0][2]: E0002000, CID: B105E00D, PID: 002BB003 FPB
T405C 000:424.523   CPU_ReadMem(32 bytes @ 0xE0000FE0)
T405C 000:432.050   ROMTbl[0][3]: E0000000, CID: B105E00D, PID: 003BB001 ITM
T405C 000:432.170   CPU_ReadMem(32 bytes @ 0xE0040FE0)
T405C 000:437.395   ROMTbl[0][4]: E0040000, CID: B105900D, PID: 000BB9A1 TPIU
T405C 000:437.422   CPU_ReadMem(32 bytes @ 0xE0041FE0)
T405C 000:441.615   ROMTbl[0][5]: E0041000, CID: B105900D, PID: 000BB925 ETM
T405C 000:442.289 - 281.752ms returns 0x2BA01477
T405C 000:442.347 JLINK_GetDLLVersion()
T405C 000:442.382 - 0.039ms returns 75202
T405C 000:442.399 JLINK_CORE_GetFound()
T405C 000:442.409 - 0.014ms returns 0xE0000FF
T405C 000:442.424 JLINK_GetDebugInfo(0x100 = JLINKARM_ROM_TABLE_ADDR_INDEX)
T405C 000:442.452   Value=0xE00FF000
T405C 000:442.484 - 0.063ms returns 0
T405C 000:450.668 JLINK_GetDebugInfo(0x100 = JLINKARM_ROM_TABLE_ADDR_INDEX)
T405C 000:450.740   Value=0xE00FF000
T405C 000:450.748 - 0.083ms returns 0
T405C 000:450.756 JLINK_GetDebugInfo(0x101 = JLINKARM_DEBUG_INFO_ETM_ADDR_INDEX)
T405C 000:450.762   Value=0xE0041000
T405C 000:450.769 - 0.016ms returns 0
T405C 000:450.781 JLINK_ReadMemEx(0xE0041FD0, 0x20 Bytes, Flags = 0x02000004)
T405C 000:450.809   CPU_ReadMem(32 bytes @ 0xE0041FD0)
T405C 000:451.730   Data:  04 00 00 00 00 00 00 00 00 00 00 00 00 00 00 00 ...
T405C 000:451.743 - 0.965ms returns 32 (0x20)
T405C 000:451.757 JLINK_GetDebugInfo(0x102 = JLINKARM_DEBUG_INFO_MTB_ADDR_INDEX)
T405C 000:451.764   Value=0x00000000
T405C 000:451.771 - 0.017ms returns 0
T405C 000:451.778 JLINK_GetDebugInfo(0x103 = JLINKARM_DEBUG_INFO_TPIU_ADDR_INDEX)
T405C 000:451.784   Value=0xE0040000
T405C 000:451.791 - 0.015ms returns 0
T405C 000:451.798 JLINK_GetDebugInfo(0x104 = JLINKARM_DEBUG_INFO_ITM_ADDR_INDEX)
T405C 000:451.804   Value=0xE0000000
T405C 000:451.811 - 0.015ms returns 0
T405C 000:451.818 JLINK_GetDebugInfo(0x105 = JLINKARM_DEBUG_INFO_DWT_ADDR_INDEX)
T405C 000:451.824   Value=0xE0001000
T405C 000:451.831 - 0.015ms returns 0
T405C 000:451.838 JLINK_GetDebugInfo(0x106 = JLINKARM_DEBUG_INFO_FPB_ADDR_INDEX)
T405C 000:451.843   Value=0xE0002000
T405C 000:451.851 - 0.015ms returns 0
T405C 000:451.858 JLINK_GetDebugInfo(0x107 = JLINKARM_DEBUG_INFO_NVIC_ADDR_INDEX)
T405C 000:451.863   Value=0xE000E000
T405C 000:451.871 - 0.015ms returns 0
T405C 000:451.877 JLINK_GetDebugInfo(0x10C = JLINKARM_DEBUG_INFO_DBG_ADDR_INDEX)
T405C 000:451.883   Value=0xE000EDF0
T405C 000:451.890 - 0.015ms returns 0
T405C 000:451.897 JLINK_GetDebugInfo(0x01 = Unknown)
T405C 000:451.903   Value=0x00000001
T405C 000:451.910 - 0.015ms returns 0
T405C 000:451.917 JLINK_ReadMemU32(0xE000ED00, 0x1 Items)
T405C 000:451.930   CPU_ReadMem(4 bytes @ 0xE000ED00)
T405C 000:452.624   Data:  41 C2 0F 41
T405C 000:452.637   Debug reg: CPUID
T405C 000:452.645 - 0.730ms returns 1 (0x1)
T405C 000:452.655 JLINK_GetDebugInfo(0x10F = JLINKARM_DEBUG_INFO_HAS_CORTEX_M_SECURITY_EXT_INDEX)
T405C 000:452.661   Value=0x00000000
T405C 000:452.669 - 0.017ms returns 0
T405C 000:452.677 JLINK_HasError()
T405C 000:452.685 JLINK_SetResetType(JLINKARM_CM3_RESET_TYPE_NORMAL)
T405C 000:452.691 - 0.008ms returns JLINKARM_CM3_RESET_TYPE_NORMAL
T405C 000:452.698 JLINK_Reset()
T405C 000:452.713   CPU is running
T405C 000:452.723   CPU_WriteMem(4 bytes @ 0xE000EDF0)
T405C 000:453.403   CPU is running
T405C 000:453.417   CPU_WriteMem(4 bytes @ 0xE000EDFC)
T405C 000:457.613   Reset: Halt core after reset via DEMCR.VC_CORERESET.
T405C 000:462.137   Reset: Reset device via AIRCR.SYSRESETREQ.
T405C 000:462.209   CPU is running
T405C 000:462.223   CPU_WriteMem(4 bytes @ 0xE000ED0C)
T405C 000:515.729   CPU_ReadMem(4 bytes @ 0xE000EDF0)
T405C 000:516.347   CPU_ReadMem(4 bytes @ 0xE000EDF0)
T405C 000:516.981   CPU is running
T405C 000:516.997   CPU_WriteMem(4 bytes @ 0xE000EDF0)
T405C 000:517.604   CPU is running
T405C 000:517.620   CPU_WriteMem(4 bytes @ 0xE000EDFC)
T405C 000:523.460   CPU_ReadMem(4 bytes @ 0xE000EDF0)
T405C 000:527.472   CPU_WriteMem(4 bytes @ 0xE0002000)
T405C 000:528.057   CPU_ReadMem(4 bytes @ 0xE000EDFC)
T405C 000:528.710   CPU_ReadMem(4 bytes @ 0xE0001000)
T405C 000:529.328 - 76.637ms
T405C 000:529.349 JLINK_Halt()
T405C 000:529.356 - 0.009ms returns 0x00
T405C 000:529.365 JLINK_ReadMemU32(0xE000EDF0, 0x1 Items)
T405C 000:529.378   CPU_ReadMem(4 bytes @ 0xE000EDF0)
T405C 000:529.907   Data:  03 00 03 00
T405C 000:529.922   Debug reg: DHCSR
T405C 000:529.931 - 0.569ms returns 1 (0x1)
T405C 000:529.947 JLINK_WriteU32_64(0xE000EDF0, 0xA05F0003)
T405C 000:529.955   Debug reg: DHCSR
T405C 000:530.275   CPU_WriteMem(4 bytes @ 0xE000EDF0)
T405C 000:530.918 - 0.978ms returns 0 (0x00000000)
T405C 000:530.937 JLINK_WriteU32_64(0xE000EDFC, 0x01000000)
T405C 000:530.944   Debug reg: DEMCR
T405C 000:530.959   CPU_WriteMem(4 bytes @ 0xE000EDFC)
T405C 000:531.600 - 0.670ms returns 0 (0x00000000)
T405C 000:552.089 JLINK_GetHWStatus(...)
T405C 000:552.348 - 0.269ms returns 0
T405C 000:564.325 JLINK_GetNumBPUnits(Type = 0xFFFFFF00)
T405C 000:564.345 - 0.024ms returns 0x06
T405C 000:564.354 JLINK_GetNumBPUnits(Type = 0xF0)
T405C 000:564.360 - 0.009ms returns 0x2000
T405C 000:564.368 JLINK_GetNumWPUnits()
T405C 000:564.374 - 0.008ms returns 4
T405C 000:578.841 JLINK_GetSpeed()
T405C 000:578.879 - 0.041ms returns 4000
T405C 000:588.168 JLINK_ReadMemU32(0xE000E004, 0x1 Items)
T405C 000:588.212   CPU_ReadMem(4 bytes @ 0xE000E004)
T405C 000:588.901   Data:  02 00 00 00
T405C 000:588.913 - 0.747ms returns 1 (0x1)
T405C 000:588.922 JLINK_ReadMemU32(0xE000E004, 0x1 Items)
T405C 000:588.932   CPU_ReadMem(4 bytes @ 0xE000E004)
T405C 000:589.659   Data:  02 00 00 00
T405C 000:589.671 - 0.751ms returns 1 (0x1)
T405C 000:589.682 JLINK_WriteMemEx(0xE0001000, 0x0000001C Bytes, Flags = 0x02000004)
T405C 000:589.689   Data:  01 00 00 00 00 00 00 00 00 00 00 00 00 00 00 00 ...
T405C 000:589.702   CPU_WriteMem(28 bytes @ 0xE0001000)
T405C 000:590.692 - 1.015ms returns 0x1C
T405C 000:590.708 JLINK_Halt()
T405C 000:590.761 - 0.056ms returns 0x00
T405C 000:590.769 JLINK_IsHalted()
T405C 000:590.781 - 0.013ms returns TRUE
T405C 000:596.922 JLINK_WriteMem(0x20000000, 0x188 Bytes, ...)
T405C 000:596.939   Data:  00 BE 0A E0 0D 78 2D 06 68 40 08 24 40 00 00 D3 ...
T405C 000:597.362   CPU_WriteMem(392 bytes @ 0x20000000)
T405C 000:602.553 - 5.653ms returns 0x188
T405C 000:602.645 JLINK_HasError()
T405C 000:602.659 JLINK_WriteReg(R0, 0x08000000)
T405C 000:602.679 - 0.023ms returns 0
T405C 000:602.688 JLINK_WriteReg(R1, 0x017D7840)
T405C 000:602.695 - 0.009ms returns 0
T405C 000:602.704 JLINK_WriteReg(R2, 0x00000001)
T405C 000:602.710 - 0.009ms returns 0
T405C 000:602.718 JLINK_WriteReg(R3, 0x00000000)
T405C 000:602.726 - 0.011ms returns 0
T405C 000:602.736 JLINK_WriteReg(R4, 0x00000000)
T405C 000:602.743 - 0.009ms returns 0
T405C 000:602.751 JLINK_WriteReg(R5, 0x00000000)
T405C 000:602.758 - 0.009ms returns 0
T405C 000:602.766 JLINK_WriteReg(R6, 0x00000000)
T405C 000:602.772 - 0.009ms returns 0
T405C 000:602.780 JLINK_WriteReg(R7, 0x00000000)
T405C 000:602.787 - 0.009ms returns 0
T405C 000:602.795 JLINK_WriteReg(R8, 0x00000000)
T405C 000:602.811 - 0.018ms returns 0
T405C 000:602.819 JLINK_WriteReg(R9, 0x20000184)
T405C 000:602.848 - 0.032ms returns 0
T405C 000:602.859 JLINK_WriteReg(R10, 0x00000000)
T405C 000:602.867 - 0.011ms returns 0
T405C 000:602.876 JLINK_WriteReg(R11, 0x00000000)
T405C 000:602.883 - 0.010ms returns 0
T405C 000:602.897 JLINK_WriteReg(R12, 0x00000000)
T405C 000:602.907 - 0.012ms returns 0
T405C 000:602.915 JLINK_WriteReg(R13 (SP), 0x20001000)
T405C 000:602.940 - 0.028ms returns 0
T405C 000:602.949 JLINK_WriteReg(R14, 0x20000001)
T405C 000:602.955 - 0.009ms returns 0
T405C 000:602.963 JLINK_WriteReg(R15 (PC), 0x2000005E)
T405C 000:602.976 - 0.015ms returns 0
T405C 000:602.984 JLINK_WriteReg(XPSR, 0x01000000)
T405C 000:602.990 - 0.009ms returns 0
T405C 000:602.999 JLINK_WriteReg(MSP, 0x20001000)
T405C 000:603.005 - 0.009ms returns 0
T405C 000:603.013 JLINK_WriteReg(PSP, 0x20001000)
T405C 000:603.020 - 0.009ms returns 0
T405C 000:603.028 JLINK_WriteReg(CFBP, 0x00000000)
T405C 000:603.035 - 0.010ms returns 0
T405C 000:603.043 JLINK_SetBPEx(Addr = 0x20000000, Type = 0xFFFFFFF2)
T405C 000:603.064   CPU_ReadMem(2 bytes @ 0x20000000)
T405C 000:603.636 - 0.601ms returns 0x00000001
T405C 000:603.653 JLINK_Go()
T405C 000:603.666   CPU_WriteMem(2 bytes @ 0x20000000)
T405C 000:604.231   CPU_ReadMem(4 bytes @ 0xE0001000)
T405C 000:604.739   CPU_WriteMem(4 bytes @ 0xE0002008)
T405C 000:604.757   CPU_WriteMem(4 bytes @ 0xE000200C)
T405C 000:604.768   CPU_WriteMem(4 bytes @ 0xE0002010)
T405C 000:604.778   CPU_WriteMem(4 bytes @ 0xE0002014)
T405C 000:604.789   CPU_WriteMem(4 bytes @ 0xE0002018)
T405C 000:604.799   CPU_WriteMem(4 bytes @ 0xE000201C)
T405C 000:607.175   CPU_WriteMem(4 bytes @ 0xE0001004)
T405C 000:610.902 - 7.266ms
T405C 000:610.934 JLINK_IsHalted()
T405C 000:614.465   CPU_ReadMem(2 bytes @ 0x20000000)
T405C 000:615.248 - 4.376ms returns TRUE
T405C 000:615.380 JLINK_ReadReg(R15 (PC))
T405C 000:615.417 - 0.042ms returns 0x20000000
T405C 000:615.434 JLINK_ClrBPEx(BPHandle = 0x00000001)
T405C 000:615.454 - 0.025ms returns 0x00
T405C 000:615.469 JLINK_ReadReg(R0)
T405C 000:615.479 - 0.014ms returns 0x00000000
T405C 000:617.084 JLINK_HasError()
T405C 000:617.112 JLINK_WriteReg(R0, 0x08000000)
T405C 000:617.141 - 0.032ms returns 0
T405C 000:617.149 JLINK_WriteReg(R1, 0x00004000)
T405C 000:617.156 - 0.010ms returns 0
T405C 000:617.165 JLINK_WriteReg(R2, 0x000000FF)
T405C 000:617.172 - 0.009ms returns 0
T405C 000:617.180 JLINK_WriteReg(R3, 0x00000000)
T405C 000:617.186 - 0.009ms returns 0
T405C 000:617.194 JLINK_WriteReg(R4, 0x00000000)
T405C 000:617.201 - 0.009ms returns 0
T405C 000:617.225 JLINK_WriteReg(R5, 0x00000000)
T405C 000:617.233 - 0.011ms returns 0
T405C 000:617.247 JLINK_WriteReg(R6, 0x00000000)
T405C 000:617.254 - 0.010ms returns 0
T405C 000:617.263 JLINK_WriteReg(R7, 0x00000000)
T405C 000:617.270 - 0.010ms returns 0
T405C 000:617.279 JLINK_WriteReg(R8, 0x00000000)
T405C 000:617.286 - 0.010ms returns 0
T405C 000:617.295 JLINK_WriteReg(R9, 0x20000184)
T405C 000:617.318 - 0.025ms returns 0
T405C 000:617.343 JLINK_WriteReg(R10, 0x00000000)
T405C 000:617.350 - 0.010ms returns 0
T405C 000:617.359 JLINK_WriteReg(R11, 0x00000000)
T405C 000:617.367 - 0.010ms returns 0
T405C 000:617.376 JLINK_WriteReg(R12, 0x00000000)
T405C 000:617.383 - 0.010ms returns 0
T405C 000:617.392 JLINK_WriteReg(R13 (SP), 0x20001000)
T405C 000:617.400 - 0.011ms returns 0
T405C 000:617.409 JLINK_WriteReg(R14, 0x20000001)
T405C 000:617.432 - 0.026ms returns 0
T405C 000:617.440 JLINK_WriteReg(R15 (PC), 0x20000020)
T405C 000:617.447 - 0.009ms returns 0
T405C 000:617.455 JLINK_WriteReg(XPSR, 0x01000000)
T405C 000:617.461 - 0.009ms returns 0
T405C 000:617.469 JLINK_WriteReg(MSP, 0x20001000)
T405C 000:617.476 - 0.009ms returns 0
T405C 000:617.484 JLINK_WriteReg(PSP, 0x20001000)
T405C 000:617.491 - 0.010ms returns 0
T405C 000:617.499 JLINK_WriteReg(CFBP, 0x00000000)
T405C 000:617.506 - 0.009ms returns 0
T405C 000:617.514 JLINK_SetBPEx(Addr = 0x20000000, Type = 0xFFFFFFF2)
T405C 000:617.522 - 0.011ms returns 0x00000002
T405C 000:617.531 JLINK_Go()
T405C 000:617.549   CPU_ReadMem(4 bytes @ 0xE0001000)
T405C 000:621.723 - 4.233ms
T405C 000:621.773 JLINK_IsHalted()
T405C 000:625.375   CPU_ReadMem(2 bytes @ 0x20000000)
T405C 000:626.040 - 4.295ms returns TRUE
T405C 000:626.092 JLINK_ReadReg(R15 (PC))
T405C 000:626.162 - 0.073ms returns 0x20000000
T405C 000:626.171 JLINK_ClrBPEx(BPHandle = 0x00000002)
T405C 000:626.177 - 0.009ms returns 0x00
T405C 000:626.185 JLINK_ReadReg(R0)
T405C 000:626.191 - 0.008ms returns 0x00000001
T405C 000:626.199 JLINK_HasError()
T405C 000:626.206 JLINK_WriteReg(R0, 0x08000000)
T405C 000:626.213 - 0.009ms returns 0
T405C 000:626.220 JLINK_WriteReg(R1, 0x00004000)
T405C 000:626.226 - 0.008ms returns 0
T405C 000:626.233 JLINK_WriteReg(R2, 0x000000FF)
T405C 000:626.239 - 0.008ms returns 0
T405C 000:626.246 JLINK_WriteReg(R3, 0x00000000)
T405C 000:626.251 - 0.008ms returns 0
T405C 000:626.258 JLINK_WriteReg(R4, 0x00000000)
T405C 000:626.264 - 0.008ms returns 0
T405C 000:626.271 JLINK_WriteReg(R5, 0x00000000)
T405C 000:626.277 - 0.008ms returns 0
T405C 000:626.284 JLINK_WriteReg(R6, 0x00000000)
T405C 000:626.289 - 0.008ms returns 0
T405C 000:626.296 JLINK_WriteReg(R7, 0x00000000)
T405C 000:626.302 - 0.008ms returns 0
T405C 000:626.309 JLINK_WriteReg(R8, 0x00000000)
T405C 000:626.315 - 0.008ms returns 0
T405C 000:626.322 JLINK_WriteReg(R9, 0x20000184)
T405C 000:626.328 - 0.008ms returns 0
T405C 000:626.334 JLINK_WriteReg(R10, 0x00000000)
T405C 000:626.340 - 0.008ms returns 0
T405C 000:626.347 JLINK_WriteReg(R11, 0x00000000)
T405C 000:626.353 - 0.008ms returns 0
T405C 000:626.360 JLINK_WriteReg(R12, 0x00000000)
T405C 000:626.366 - 0.008ms returns 0
T405C 000:626.373 JLINK_WriteReg(R13 (SP), 0x20001000)
T405C 000:626.379 - 0.008ms returns 0
T405C 000:626.386 JLINK_WriteReg(R14, 0x20000001)
T405C 000:626.391 - 0.008ms returns 0
T405C 000:626.398 JLINK_WriteReg(R15 (PC), 0x200000C6)
T405C 000:626.404 - 0.008ms returns 0
T405C 000:626.411 JLINK_WriteReg(XPSR, 0x01000000)
T405C 000:626.417 - 0.008ms returns 0
T405C 000:626.424 JLINK_WriteReg(MSP, 0x20001000)
T405C 000:626.430 - 0.008ms returns 0
T405C 000:626.436 JLINK_WriteReg(PSP, 0x20001000)
T405C 000:626.442 - 0.008ms returns 0
T405C 000:626.449 JLINK_WriteReg(CFBP, 0x00000000)
T405C 000:626.455 - 0.008ms returns 0
T405C 000:626.463 JLINK_SetBPEx(Addr = 0x20000000, Type = 0xFFFFFFF2)
T405C 000:626.470 - 0.009ms returns 0x00000003
T405C 000:626.477 JLINK_Go()
T405C 000:626.493   CPU_ReadMem(4 bytes @ 0xE0001000)
T405C 000:630.622 - 4.152ms
T405C 000:630.638 JLINK_IsHalted()
T405C 000:631.180 - 0.549ms returns FALSE
T405C 000:631.194 JLINK_HasError()
T405C 000:659.341 JLINK_IsHalted()
T405C 000:660.002 - 0.668ms returns FALSE
T405C 000:660.016 JLINK_HasError()
T405C 000:661.354 JLINK_IsHalted()
T405C 000:661.842 - 0.497ms returns FALSE
T405C 000:661.861 JLINK_HasError()
T405C 000:671.223 JLINK_IsHalted()
T405C 000:671.896 - 0.681ms returns FALSE
T405C 000:671.911 JLINK_HasError()
T405C 000:674.907 JLINK_IsHalted()
T405C 000:675.583 - 0.683ms returns FALSE
T405C 000:675.597 JLINK_HasError()
T405C 000:676.795 JLINK_IsHalted()
T405C 000:677.495 - 0.707ms returns FALSE
T405C 000:677.510 JLINK_HasError()
T405C 000:679.460 JLINK_IsHalted()
T405C 000:679.976 - 0.524ms returns FALSE
T405C 000:679.994 JLINK_HasError()
T405C 000:685.645 JLINK_IsHalted()
T405C 000:686.302 - 0.664ms returns FALSE
T405C 000:686.317 JLINK_HasError()
T405C 000:687.488 JLINK_IsHalted()
T405C 000:688.126 - 0.645ms returns FALSE
T405C 000:688.140 JLINK_HasError()
T405C 000:692.355 JLINK_IsHalted()
T405C 000:692.915 - 0.568ms returns FALSE
T405C 000:692.933 JLINK_HasError()
T405C 000:694.307 JLINK_IsHalted()
T405C 000:694.797 - 0.501ms returns FALSE
T405C 000:694.822 JLINK_HasError()
T405C 000:698.978 JLINK_IsHalted()
T405C 000:699.742 - 0.772ms returns FALSE
T405C 000:699.757 JLINK_HasError()
T405C 000:700.964 JLINK_IsHalted()
T405C 000:701.599 - 0.642ms returns FALSE
T405C 000:701.614 JLINK_HasError()
T405C 000:703.791 JLINK_IsHalted()
T405C 000:704.450 - 0.665ms returns FALSE
T405C 000:704.464 JLINK_HasError()
T405C 000:708.512 JLINK_IsHalted()
T405C 000:709.155 - 0.650ms returns FALSE
T405C 000:709.170 JLINK_HasError()
T405C 000:710.316 JLINK_IsHalted()
T405C 000:710.854 - 0.552ms returns FALSE
T405C 000:710.878 JLINK_HasError()
T405C 000:715.491 JLINK_IsHalted()
T405C 000:716.154 - 0.670ms returns FALSE
T405C 000:716.169 JLINK_HasError()
T405C 000:717.308 JLINK_IsHalted()
T405C 000:717.922 - 0.621ms returns FALSE
T405C 000:717.940 JLINK_HasError()
T405C 000:719.121 JLINK_IsHalted()
T405C 000:719.764 - 0.650ms returns FALSE
T405C 000:719.778 JLINK_HasError()
T405C 000:726.156 JLINK_IsHalted()
T405C 000:726.683 - 0.541ms returns FALSE
T405C 000:726.706 JLINK_HasError()
T405C 000:732.082 JLINK_IsHalted()
T405C 000:732.652 - 0.578ms returns FALSE
T405C 000:732.669 JLINK_HasError()
T405C 000:734.648 JLINK_IsHalted()
T405C 000:735.187 - 0.548ms returns FALSE
T405C 000:735.206 JLINK_HasError()
T405C 000:740.197 JLINK_IsHalted()
T405C 000:740.755 - 0.566ms returns FALSE
T405C 000:740.773 JLINK_HasError()
T405C 000:742.156 JLINK_IsHalted()
T405C 000:742.649 - 0.500ms returns FALSE
T405C 000:742.665 JLINK_HasError()
T405C 000:746.148 JLINK_IsHalted()
T405C 000:746.716 - 0.586ms returns FALSE
T405C 000:746.748 JLINK_HasError()
T405C 000:748.783 JLINK_IsHalted()
T405C 000:749.314 - 0.539ms returns FALSE
T405C 000:749.330 JLINK_HasError()
T405C 000:751.400 JLINK_IsHalted()
T405C 000:751.926 - 0.532ms returns FALSE
T405C 000:751.941 JLINK_HasError()
T405C 000:755.435 JLINK_IsHalted()
T405C 000:755.948 - 0.521ms returns FALSE
T405C 000:755.965 JLINK_HasError()
T405C 000:757.430 JLINK_IsHalted()
T405C 000:757.979 - 0.559ms returns FALSE
T405C 000:758.000 JLINK_HasError()
T405C 000:760.065 JLINK_IsHalted()
T405C 000:760.606 - 0.550ms returns FALSE
T405C 000:760.624 JLINK_HasError()
T405C 000:764.078 JLINK_IsHalted()
T405C 000:764.910 - 0.857ms returns FALSE
T405C 000:764.961 JLINK_HasError()
T405C 000:766.924 JLINK_IsHalted()
T405C 000:767.488 - 0.571ms returns FALSE
T405C 000:767.505 JLINK_HasError()
T405C 000:771.155 JLINK_IsHalted()
T405C 000:771.689 - 0.541ms returns FALSE
T405C 000:771.706 JLINK_HasError()
T405C 000:773.151 JLINK_IsHalted()
T405C 000:773.688 - 0.544ms returns FALSE
T405C 000:773.704 JLINK_HasError()
T405C 000:775.764 JLINK_IsHalted()
T405C 000:776.308 - 0.551ms returns FALSE
T405C 000:776.323 JLINK_HasError()
T405C 000:780.045 JLINK_IsHalted()
T405C 000:780.586 - 0.548ms returns FALSE
T405C 000:780.602 JLINK_HasError()
T405C 000:781.672 JLINK_IsHalted()
T405C 000:782.211 - 0.546ms returns FALSE
T405C 000:782.227 JLINK_HasError()
T405C 000:783.665 JLINK_IsHalted()
T405C 000:784.215 - 0.559ms returns FALSE
T405C 000:784.233 JLINK_HasError()
T405C 000:788.962 JLINK_IsHalted()
T405C 000:789.483 - 0.548ms returns FALSE
T405C 000:789.520 JLINK_HasError()
T405C 000:791.000 JLINK_IsHalted()
T405C 000:791.453 - 0.465ms returns FALSE
T405C 000:791.481 JLINK_HasError()
T405C 000:797.071 JLINK_IsHalted()
T405C 000:797.655 - 0.593ms returns FALSE
T405C 000:797.673 JLINK_HasError()
T405C 000:799.026 JLINK_IsHalted()
T405C 000:799.509 - 0.492ms returns FALSE
T405C 000:799.526 JLINK_HasError()
T405C 000:836.797 JLINK_IsHalted()
T405C 000:837.452 - 0.662ms returns FALSE
T405C 000:837.467 JLINK_HasError()
T405C 000:838.783 JLINK_IsHalted()
T405C 000:839.433 - 0.656ms returns FALSE
T405C 000:839.447 JLINK_HasError()
T405C 000:841.673 JLINK_IsHalted()
T405C 000:842.180 - 0.512ms returns FALSE
T405C 000:842.193 JLINK_HasError()
T405C 000:845.579 JLINK_IsHalted()
T405C 000:846.059 - 0.488ms returns FALSE
T405C 000:846.096 JLINK_HasError()
T405C 000:847.541 JLINK_IsHalted()
T405C 000:848.128 - 0.597ms returns FALSE
T405C 000:848.149 JLINK_HasError()
T405C 000:853.840 JLINK_IsHalted()
T405C 000:854.413 - 0.582ms returns FALSE
T405C 000:854.431 JLINK_HasError()
T405C 000:855.802 JLINK_IsHalted()
T405C 000:856.395 - 0.605ms returns FALSE
T405C 000:856.433 JLINK_HasError()
T405C 000:858.493 JLINK_IsHalted()
T405C 000:859.130 - 0.645ms returns FALSE
T405C 000:859.145 JLINK_HasError()
T405C 000:863.517 JLINK_IsHalted()
T405C 000:864.143 - 0.634ms returns FALSE
T405C 000:864.157 JLINK_HasError()
T405C 000:867.358 JLINK_IsHalted()
T405C 000:867.913 - 0.563ms returns FALSE
T405C 000:867.930 JLINK_HasError()
T405C 000:869.378 JLINK_IsHalted()
T405C 000:869.929 - 0.560ms returns FALSE
T405C 000:869.947 JLINK_HasError()
T405C 000:871.484 JLINK_IsHalted()
T405C 000:872.034 - 0.558ms returns FALSE
T405C 000:872.051 JLINK_HasError()
T405C 000:873.145 JLINK_IsHalted()
T405C 000:873.735 - 0.599ms returns FALSE
T405C 000:873.752 JLINK_HasError()
T405C 000:891.717 JLINK_IsHalted()
T405C 000:892.247 - 0.536ms returns FALSE
T405C 000:892.260 JLINK_HasError()
T405C 000:894.769 JLINK_IsHalted()
T405C 000:895.347 - 0.587ms returns FALSE
T405C 000:895.364 JLINK_HasError()
T405C 000:903.572 JLINK_IsHalted()
T405C 000:904.312 - 0.747ms returns FALSE
T405C 000:904.327 JLINK_HasError()
T405C 000:905.517 JLINK_IsHalted()
T405C 000:906.174 - 0.664ms returns FALSE
T405C 000:906.188 JLINK_HasError()
T405C 000:909.323 JLINK_IsHalted()
T405C 000:909.990 - 0.674ms returns FALSE
T405C 000:910.004 JLINK_HasError()
T405C 000:912.065 JLINK_IsHalted()
T405C 000:912.550 - 0.507ms returns FALSE
T405C 000:912.630 JLINK_HasError()
T405C 000:918.339 JLINK_IsHalted()
T405C 000:919.026 - 0.694ms returns FALSE
T405C 000:919.041 JLINK_HasError()
T405C 000:920.390 JLINK_IsHalted()
T405C 000:920.894 - 0.511ms returns FALSE
T405C 000:920.908 JLINK_HasError()
T405C 000:924.367 JLINK_IsHalted()
T405C 000:924.977 - 0.617ms returns FALSE
T405C 000:924.991 JLINK_HasError()
T405C 000:926.352 JLINK_IsHalted()
T405C 000:927.034 - 0.689ms returns FALSE
T405C 000:927.049 JLINK_HasError()
T405C 000:928.249 JLINK_IsHalted()
T405C 000:928.736 - 0.495ms returns FALSE
T405C 000:928.752 JLINK_HasError()
T405C 000:930.111 JLINK_IsHalted()
T405C 000:930.651 - 0.557ms returns FALSE
T405C 000:930.679 JLINK_HasError()
T405C 000:936.163 JLINK_IsHalted()
T405C 000:936.661 - 0.508ms returns FALSE
T405C 000:936.680 JLINK_HasError()
T405C 000:940.542 JLINK_IsHalted()
T405C 000:941.048 - 0.516ms returns FALSE
T405C 000:941.068 JLINK_HasError()
T405C 000:942.525 JLINK_IsHalted()
T405C 000:943.023 - 0.507ms returns FALSE
T405C 000:943.041 JLINK_HasError()
T405C 000:944.480 JLINK_IsHalted()
T405C 000:944.958 - 0.490ms returns FALSE
T405C 000:944.982 JLINK_HasError()
T405C 000:950.277 JLINK_IsHalted()
T405C 000:950.939 - 0.670ms returns FALSE
T405C 000:950.955 JLINK_HasError()
T405C 000:952.277 JLINK_IsHalted()
T405C 000:952.922 - 0.653ms returns FALSE
T405C 000:952.938 JLINK_HasError()
T405C 000:956.482 JLINK_IsHalted()
T405C 000:956.958 - 0.484ms returns FALSE
T405C 000:956.973 JLINK_HasError()
T405C 000:959.918 JLINK_IsHalted()
T405C 000:960.493 - 0.602ms returns FALSE
T405C 000:960.528 JLINK_HasError()
T405C 000:964.905 JLINK_IsHalted()
T405C 000:965.554 - 0.656ms returns FALSE
T405C 000:965.568 JLINK_HasError()
T405C 000:966.758 JLINK_IsHalted()
T405C 000:967.342 - 0.592ms returns FALSE
T405C 000:967.380 JLINK_HasError()
T405C 000:969.316 JLINK_IsHalted()
T405C 000:969.950 - 0.641ms returns FALSE
T405C 000:969.965 JLINK_HasError()
T405C 000:973.459 JLINK_IsHalted()
T405C 000:974.008 - 0.578ms returns FALSE
T405C 000:974.062 JLINK_HasError()
T405C 000:975.976 JLINK_IsHalted()
T405C 000:976.439 - 0.472ms returns FALSE
T405C 000:976.458 JLINK_HasError()
T405C 000:983.048 JLINK_IsHalted()
T405C 000:983.747 - 0.719ms returns FALSE
T405C 000:983.786 JLINK_HasError()
T405C 000:985.055 JLINK_IsHalted()
T405C 000:985.608 - 0.561ms returns FALSE
T405C 000:985.625 JLINK_HasError()
T405C 000:989.676 JLINK_IsHalted()
T405C 000:990.237 - 0.569ms returns FALSE
T405C 000:990.257 JLINK_HasError()
T405C 000:991.348 JLINK_IsHalted()
T405C 000:991.883 - 0.543ms returns FALSE
T405C 000:991.901 JLINK_HasError()
T405C 000:992.993 JLINK_IsHalted()
T405C 000:993.532 - 0.547ms returns FALSE
T405C 000:993.550 JLINK_HasError()
T405C 000:996.985 JLINK_IsHalted()
T405C 000:997.535 - 0.558ms returns FALSE
T405C 000:997.558 JLINK_HasError()
T405C 000:999.713 JLINK_IsHalted()
T405C 001:000.263 - 0.559ms returns FALSE
T405C 001:000.283 JLINK_HasError()
T405C 001:002.393 JLINK_IsHalted()
T405C 001:002.947 - 0.562ms returns FALSE
T405C 001:002.965 JLINK_HasError()
T405C 001:030.120 JLINK_IsHalted()
T405C 001:031.047 - 0.973ms returns FALSE
T405C 001:031.123 JLINK_HasError()
T405C 001:033.234 JLINK_IsHalted()
T405C 001:036.491   CPU_ReadMem(2 bytes @ 0x20000000)
T405C 001:037.017 - 3.807ms returns TRUE
T405C 001:037.050 JLINK_ReadReg(R15 (PC))
T405C 001:037.060 - 0.013ms returns 0x20000000
T405C 001:037.070 JLINK_ClrBPEx(BPHandle = 0x00000003)
T405C 001:037.077 - 0.010ms returns 0x00
T405C 001:037.085 JLINK_ReadReg(R0)
T405C 001:037.092 - 0.009ms returns 0x00000000
T405C 001:037.586 JLINK_HasError()
T405C 001:037.598 JLINK_WriteReg(R0, 0x00000001)
T405C 001:037.606 - 0.010ms returns 0
T405C 001:037.613 JLINK_WriteReg(R1, 0x00004000)
T405C 001:037.619 - 0.008ms returns 0
T405C 001:037.626 JLINK_WriteReg(R2, 0x000000FF)
T405C 001:037.632 - 0.008ms returns 0
T405C 001:037.639 JLINK_WriteReg(R3, 0x00000000)
T405C 001:037.644 - 0.008ms returns 0
T405C 001:037.652 JLINK_WriteReg(R4, 0x00000000)
T405C 001:037.657 - 0.009ms returns 0
T405C 001:037.666 JLINK_WriteReg(R5, 0x00000000)
T405C 001:037.671 - 0.008ms returns 0
T405C 001:037.678 JLINK_WriteReg(R6, 0x00000000)
T405C 001:037.684 - 0.008ms returns 0
T405C 001:037.691 JLINK_WriteReg(R7, 0x00000000)
T405C 001:037.696 - 0.008ms returns 0
T405C 001:037.703 JLINK_WriteReg(R8, 0x00000000)
T405C 001:037.709 - 0.008ms returns 0
T405C 001:037.716 JLINK_WriteReg(R9, 0x20000184)
T405C 001:037.722 - 0.008ms returns 0
T405C 001:037.729 JLINK_WriteReg(R10, 0x00000000)
T405C 001:037.735 - 0.008ms returns 0
T405C 001:037.742 JLINK_WriteReg(R11, 0x00000000)
T405C 001:037.747 - 0.008ms returns 0
T405C 001:037.754 JLINK_WriteReg(R12, 0x00000000)
T405C 001:037.760 - 0.008ms returns 0
T405C 001:037.767 JLINK_WriteReg(R13 (SP), 0x20001000)
T405C 001:037.774 - 0.010ms returns 0
T405C 001:037.781 JLINK_WriteReg(R14, 0x20000001)
T405C 001:037.787 - 0.008ms returns 0
T405C 001:037.794 JLINK_WriteReg(R15 (PC), 0x2000008C)
T405C 001:037.800 - 0.008ms returns 0
T405C 001:037.807 JLINK_WriteReg(XPSR, 0x01000000)
T405C 001:037.813 - 0.008ms returns 0
T405C 001:037.820 JLINK_WriteReg(MSP, 0x20001000)
T405C 001:037.825 - 0.008ms returns 0
T405C 001:037.832 JLINK_WriteReg(PSP, 0x20001000)
T405C 001:037.838 - 0.008ms returns 0
T405C 001:037.845 JLINK_WriteReg(CFBP, 0x00000000)
T405C 001:037.851 - 0.008ms returns 0
T405C 001:037.858 JLINK_SetBPEx(Addr = 0x20000000, Type = 0xFFFFFFF2)
T405C 001:037.864 - 0.009ms returns 0x00000004
T405C 001:037.872 JLINK_Go()
T405C 001:037.884   CPU_ReadMem(4 bytes @ 0xE0001000)
T405C 001:042.036 - 4.170ms
T405C 001:042.049 JLINK_IsHalted()
T405C 001:045.406   CPU_ReadMem(2 bytes @ 0x20000000)
T405C 001:046.102 - 4.060ms returns TRUE
T405C 001:046.115 JLINK_ReadReg(R15 (PC))
T405C 001:046.123 - 0.010ms returns 0x20000000
T405C 001:046.130 JLINK_ClrBPEx(BPHandle = 0x00000004)
T405C 001:046.136 - 0.008ms returns 0x00
T405C 001:046.143 JLINK_ReadReg(R0)
T405C 001:046.148 - 0.007ms returns 0x00000000
T405C 001:108.608 JLINK_WriteMem(0x20000000, 0x188 Bytes, ...)
T405C 001:108.620   Data:  00 BE 0A E0 0D 78 2D 06 68 40 08 24 40 00 00 D3 ...
T405C 001:108.654   CPU_WriteMem(392 bytes @ 0x20000000)
T405C 001:113.819 - 5.233ms returns 0x188
T405C 001:113.914 JLINK_HasError()
T405C 001:113.960 JLINK_WriteReg(R0, 0x08000000)
T405C 001:113.982 - 0.024ms returns 0
T405C 001:113.990 JLINK_WriteReg(R1, 0x017D7840)
T405C 001:113.997 - 0.009ms returns 0
T405C 001:114.005 JLINK_WriteReg(R2, 0x00000002)
T405C 001:114.011 - 0.009ms returns 0
T405C 001:114.019 JLINK_WriteReg(R3, 0x00000000)
T405C 001:114.026 - 0.009ms returns 0
T405C 001:114.033 JLINK_WriteReg(R4, 0x00000000)
T405C 001:114.040 - 0.009ms returns 0
T405C 001:114.048 JLINK_WriteReg(R5, 0x00000000)
T405C 001:114.074 - 0.030ms returns 0
T405C 001:114.083 JLINK_WriteReg(R6, 0x00000000)
T405C 001:114.093 - 0.012ms returns 0
T405C 001:114.101 JLINK_WriteReg(R7, 0x00000000)
T405C 001:114.206 - 0.115ms returns 0
T405C 001:114.226 JLINK_WriteReg(R8, 0x00000000)
T405C 001:114.236 - 0.031ms returns 0
T405C 001:114.267 JLINK_WriteReg(R9, 0x20000184)
T405C 001:114.312 - 0.051ms returns 0
T405C 001:114.335 JLINK_WriteReg(R10, 0x00000000)
T405C 001:114.343 - 0.011ms returns 0
T405C 001:114.352 JLINK_WriteReg(R11, 0x00000000)
T405C 001:114.360 - 0.011ms returns 0
T405C 001:114.370 JLINK_WriteReg(R12, 0x00000000)
T405C 001:114.377 - 0.010ms returns 0
T405C 001:114.386 JLINK_WriteReg(R13 (SP), 0x20001000)
T405C 001:114.395 - 0.012ms returns 0
T405C 001:114.405 JLINK_WriteReg(R14, 0x20000001)
T405C 001:114.413 - 0.010ms returns 0
T405C 001:114.422 JLINK_WriteReg(R15 (PC), 0x2000005E)
T405C 001:114.475 - 0.057ms returns 0
T405C 001:114.485 JLINK_WriteReg(XPSR, 0x01000000)
T405C 001:114.492 - 0.010ms returns 0
T405C 001:114.501 JLINK_WriteReg(MSP, 0x20001000)
T405C 001:114.508 - 0.010ms returns 0
T405C 001:114.517 JLINK_WriteReg(PSP, 0x20001000)
T405C 001:114.524 - 0.010ms returns 0
T405C 001:114.532 JLINK_WriteReg(CFBP, 0x00000000)
T405C 001:114.539 - 0.010ms returns 0
T405C 001:114.548 JLINK_SetBPEx(Addr = 0x20000000, Type = 0xFFFFFFF2)
T405C 001:114.581   CPU_ReadMem(2 bytes @ 0x20000000)
T405C 001:115.159 - 0.620ms returns 0x00000005
T405C 001:115.178 JLINK_Go()
T405C 001:115.190   CPU_WriteMem(2 bytes @ 0x20000000)
T405C 001:115.743   CPU_ReadMem(4 bytes @ 0xE0001000)
T405C 001:119.394 - 4.229ms
T405C 001:119.417 JLINK_IsHalted()
T405C 001:122.689   CPU_ReadMem(2 bytes @ 0x20000000)
T405C 001:123.137 - 3.729ms returns TRUE
T405C 001:123.155 JLINK_ReadReg(R15 (PC))
T405C 001:123.166 - 0.014ms returns 0x20000000
T405C 001:123.176 JLINK_ClrBPEx(BPHandle = 0x00000005)
T405C 001:123.184 - 0.011ms returns 0x00
T405C 001:123.194 JLINK_ReadReg(R0)
T405C 001:123.201 - 0.010ms returns 0x00000000
T405C 001:123.783 JLINK_WriteMem(0x20000188, 0x278 Bytes, ...)
T405C 001:123.797   Data:  C0 07 00 20 45 02 00 08 2B 17 00 08 D3 16 00 08 ...
T405C 001:123.821   CPU_WriteMem(632 bytes @ 0x20000188)
T405C 001:131.883 - 8.219ms returns 0x278
T405C 001:132.057 JLINK_WriteMem(0x20000400, 0x188 Bytes, ...)
T405C 001:132.071   Data:  C0 07 00 20 C0 03 00 20 C0 03 00 20 53 EA 02 0C ...
T405C 001:132.158   CPU_WriteMem(392 bytes @ 0x20000400)
T405C 001:137.583 - 5.551ms returns 0x188
T405C 001:137.624 JLINK_HasError()
T405C 001:137.636 JLINK_WriteReg(R0, 0x08000000)
T405C 001:137.654 - 0.022ms returns 0
T405C 001:137.663 JLINK_WriteReg(R1, 0x00000400)
T405C 001:137.671 - 0.011ms returns 0
T405C 001:137.683 JLINK_WriteReg(R2, 0x20000188)
T405C 001:137.690 - 0.011ms returns 0
T405C 001:137.701 JLINK_WriteReg(R3, 0x00000000)
T405C 001:137.708 - 0.010ms returns 0
T405C 001:137.719 JLINK_WriteReg(R4, 0x00000000)
T405C 001:137.726 - 0.010ms returns 0
T405C 001:137.737 JLINK_WriteReg(R5, 0x00000000)
T405C 001:137.744 - 0.010ms returns 0
T405C 001:137.754 JLINK_WriteReg(R6, 0x00000000)
T405C 001:137.762 - 0.010ms returns 0
T405C 001:137.772 JLINK_WriteReg(R7, 0x00000000)
T405C 001:137.780 - 0.010ms returns 0
T405C 001:137.790 JLINK_WriteReg(R8, 0x00000000)
T405C 001:137.797 - 0.010ms returns 0
T405C 001:137.808 JLINK_WriteReg(R9, 0x20000184)
T405C 001:137.815 - 0.010ms returns 0
T405C 001:137.825 JLINK_WriteReg(R10, 0x00000000)
T405C 001:137.833 - 0.010ms returns 0
T405C 001:137.843 JLINK_WriteReg(R11, 0x00000000)
T405C 001:137.851 - 0.010ms returns 0
T405C 001:137.861 JLINK_WriteReg(R12, 0x00000000)
T405C 001:137.869 - 0.010ms returns 0
T405C 001:137.879 JLINK_WriteReg(R13 (SP), 0x20001000)
T405C 001:137.887 - 0.011ms returns 0
T405C 001:137.898 JLINK_WriteReg(R14, 0x20000001)
T405C 001:137.905 - 0.010ms returns 0
T405C 001:137.916 JLINK_WriteReg(R15 (PC), 0x20000112)
T405C 001:137.923 - 0.010ms returns 0
T405C 001:137.934 JLINK_WriteReg(XPSR, 0x01000000)
T405C 001:137.941 - 0.010ms returns 0
T405C 001:137.952 JLINK_WriteReg(MSP, 0x20001000)
T405C 001:137.959 - 0.010ms returns 0
T405C 001:137.968 JLINK_WriteReg(PSP, 0x20001000)
T405C 001:137.978 - 0.015ms returns 0
T405C 001:137.989 JLINK_WriteReg(CFBP, 0x00000000)
T405C 001:137.997 - 0.011ms returns 0
T405C 001:138.542 JLINK_SetBPEx(Addr = 0x20000000, Type = 0xFFFFFFF2)
T405C 001:138.560 - 0.022ms returns 0x00000006
T405C 001:138.571 JLINK_Go()
T405C 001:138.593   CPU_ReadMem(4 bytes @ 0xE0001000)
T405C 001:142.494 - 3.932ms
T405C 001:142.512 JLINK_IsHalted()
T405C 001:143.067 - 0.563ms returns FALSE
T405C 001:143.084 JLINK_HasError()
T405C 001:154.478 JLINK_IsHalted()
T405C 001:157.925   CPU_ReadMem(2 bytes @ 0x20000000)
T405C 001:158.547 - 4.077ms returns TRUE
T405C 001:158.565 JLINK_ReadReg(R15 (PC))
T405C 001:158.576 - 0.014ms returns 0x20000000
T405C 001:158.586 JLINK_ClrBPEx(BPHandle = 0x00000006)
T405C 001:158.593 - 0.011ms returns 0x00
T405C 001:158.603 JLINK_ReadReg(R0)
T405C 001:158.610 - 0.011ms returns 0x00000000
T405C 001:159.393 JLINK_WriteMem(0x20000188, 0x278 Bytes, ...)
T405C 001:159.407   Data:  83 15 00 00 01 69 4A 1C 02 61 08 78 70 47 00 B5 ...
T405C 001:159.425   CPU_WriteMem(632 bytes @ 0x20000188)
T405C 001:167.369 - 7.993ms returns 0x278
T405C 001:167.401 JLINK_WriteMem(0x20000400, 0x188 Bytes, ...)
T405C 001:167.410   Data:  00 24 D6 E9 01 70 F5 68 80 46 30 46 03 E0 41 46 ...
T405C 001:167.441   CPU_WriteMem(392 bytes @ 0x20000400)
T405C 001:172.672 - 5.281ms returns 0x188
T405C 001:172.695 JLINK_HasError()
T405C 001:172.706 JLINK_WriteReg(R0, 0x08000400)
T405C 001:172.718 - 0.014ms returns 0
T405C 001:172.727 JLINK_WriteReg(R1, 0x00000400)
T405C 001:172.735 - 0.011ms returns 0
T405C 001:172.824 JLINK_WriteReg(R2, 0x20000188)
T405C 001:172.841 - 0.020ms returns 0
T405C 001:172.851 JLINK_WriteReg(R3, 0x00000000)
T405C 001:172.859 - 0.011ms returns 0
T405C 001:172.868 JLINK_WriteReg(R4, 0x00000000)
T405C 001:172.875 - 0.010ms returns 0
T405C 001:172.884 JLINK_WriteReg(R5, 0x00000000)
T405C 001:172.892 - 0.010ms returns 0
T405C 001:172.900 JLINK_WriteReg(R6, 0x00000000)
T405C 001:172.908 - 0.010ms returns 0
T405C 001:172.917 JLINK_WriteReg(R7, 0x00000000)
T405C 001:172.924 - 0.010ms returns 0
T405C 001:172.933 JLINK_WriteReg(R8, 0x00000000)
T405C 001:172.940 - 0.010ms returns 0
T405C 001:172.949 JLINK_WriteReg(R9, 0x20000184)
T405C 001:172.956 - 0.010ms returns 0
T405C 001:172.965 JLINK_WriteReg(R10, 0x00000000)
T405C 001:172.972 - 0.010ms returns 0
T405C 001:172.981 JLINK_WriteReg(R11, 0x00000000)
T405C 001:172.988 - 0.010ms returns 0
T405C 001:172.997 JLINK_WriteReg(R12, 0x00000000)
T405C 001:173.004 - 0.010ms returns 0
T405C 001:173.013 JLINK_WriteReg(R13 (SP), 0x20001000)
T405C 001:173.021 - 0.011ms returns 0
T405C 001:173.030 JLINK_WriteReg(R14, 0x20000001)
T405C 001:173.037 - 0.010ms returns 0
T405C 001:173.046 JLINK_WriteReg(R15 (PC), 0x20000112)
T405C 001:173.053 - 0.010ms returns 0
T405C 001:173.062 JLINK_WriteReg(XPSR, 0x01000000)
T405C 001:173.069 - 0.010ms returns 0
T405C 001:173.078 JLINK_WriteReg(MSP, 0x20001000)
T405C 001:173.085 - 0.010ms returns 0
T405C 001:173.094 JLINK_WriteReg(PSP, 0x20001000)
T405C 001:173.101 - 0.010ms returns 0
T405C 001:173.110 JLINK_WriteReg(CFBP, 0x00000000)
T405C 001:173.117 - 0.010ms returns 0
T405C 001:173.126 JLINK_SetBPEx(Addr = 0x20000000, Type = 0xFFFFFFF2)
T405C 001:173.135 - 0.012ms returns 0x00000007
T405C 001:173.145 JLINK_Go()
T405C 001:173.161   CPU_ReadMem(4 bytes @ 0xE0001000)
T405C 001:176.910 - 3.775ms
T405C 001:176.929 JLINK_IsHalted()
T405C 001:177.442 - 0.522ms returns FALSE
T405C 001:177.463 JLINK_HasError()
T405C 001:191.778 JLINK_IsHalted()
T405C 001:195.186   CPU_ReadMem(2 bytes @ 0x20000000)
T405C 001:195.728 - 3.960ms returns TRUE
T405C 001:195.749 JLINK_ReadReg(R15 (PC))
T405C 001:195.772 - 0.026ms returns 0x20000000
T405C 001:195.782 JLINK_ClrBPEx(BPHandle = 0x00000007)
T405C 001:195.791 - 0.012ms returns 0x00
T405C 001:195.800 JLINK_ReadReg(R0)
T405C 001:195.808 - 0.011ms returns 0x00000000
T405C 001:196.952 JLINK_WriteMem(0x20000188, 0x278 Bytes, ...)
T405C 001:196.975   Data:  FF F7 10 FF 4C 21 20 46 FF F7 C0 FD 20 6D 20 F0 ...
T405C 001:197.005   CPU_WriteMem(632 bytes @ 0x20000188)
T405C 001:205.017 - 8.084ms returns 0x278
T405C 001:205.048 JLINK_WriteMem(0x20000400, 0x188 Bytes, ...)
T405C 001:205.057   Data:  FF F7 8C FD A1 69 20 F0 00 42 B2 1A 11 44 00 28 ...
T405C 001:205.078   CPU_WriteMem(392 bytes @ 0x20000400)
T405C 001:210.263 - 5.245ms returns 0x188
T405C 001:210.325 JLINK_HasError()
T405C 001:210.339 JLINK_WriteReg(R0, 0x08000800)
T405C 001:210.357 - 0.021ms returns 0
T405C 001:210.367 JLINK_WriteReg(R1, 0x00000400)
T405C 001:210.374 - 0.011ms returns 0
T405C 001:210.386 JLINK_WriteReg(R2, 0x20000188)
T405C 001:210.393 - 0.010ms returns 0
T405C 001:210.402 JLINK_WriteReg(R3, 0x00000000)
T405C 001:210.409 - 0.010ms returns 0
T405C 001:210.419 JLINK_WriteReg(R4, 0x00000000)
T405C 001:210.428 - 0.012ms returns 0
T405C 001:210.437 JLINK_WriteReg(R5, 0x00000000)
T405C 001:210.445 - 0.010ms returns 0
T405C 001:210.454 JLINK_WriteReg(R6, 0x00000000)
T405C 001:210.463 - 0.013ms returns 0
T405C 001:210.473 JLINK_WriteReg(R7, 0x00000000)
T405C 001:210.480 - 0.010ms returns 0
T405C 001:210.491 JLINK_WriteReg(R8, 0x00000000)
T405C 001:210.498 - 0.010ms returns 0
T405C 001:210.507 JLINK_WriteReg(R9, 0x20000184)
T405C 001:210.514 - 0.010ms returns 0
T405C 001:210.523 JLINK_WriteReg(R10, 0x00000000)
T405C 001:210.530 - 0.010ms returns 0
T405C 001:210.539 JLINK_WriteReg(R11, 0x00000000)
T405C 001:210.547 - 0.011ms returns 0
T405C 001:210.557 JLINK_WriteReg(R12, 0x00000000)
T405C 001:210.565 - 0.010ms returns 0
T405C 001:210.671 JLINK_WriteReg(R13 (SP), 0x20001000)
T405C 001:210.690 - 0.022ms returns 0
T405C 001:210.701 JLINK_WriteReg(R14, 0x20000001)
T405C 001:210.709 - 0.011ms returns 0
T405C 001:210.718 JLINK_WriteReg(R15 (PC), 0x20000112)
T405C 001:210.726 - 0.011ms returns 0
T405C 001:210.734 JLINK_WriteReg(XPSR, 0x01000000)
T405C 001:210.742 - 0.010ms returns 0
T405C 001:210.751 JLINK_WriteReg(MSP, 0x20001000)
T405C 001:210.758 - 0.012ms returns 0
T405C 001:210.771 JLINK_WriteReg(PSP, 0x20001000)
T405C 001:210.785 - 0.019ms returns 0
T405C 001:210.796 JLINK_WriteReg(CFBP, 0x00000000)
T405C 001:210.808 - 0.016ms returns 0
T405C 001:210.827 JLINK_SetBPEx(Addr = 0x20000000, Type = 0xFFFFFFF2)
T405C 001:210.841 - 0.021ms returns 0x00000008
T405C 001:210.858 JLINK_Go()
T405C 001:210.888   CPU_ReadMem(4 bytes @ 0xE0001000)
T405C 001:214.747 - 3.906ms
T405C 001:214.775 JLINK_IsHalted()
T405C 001:215.230 - 0.465ms returns FALSE
T405C 001:215.251 JLINK_HasError()
T405C 001:225.978 JLINK_IsHalted()
T405C 001:229.264   CPU_ReadMem(2 bytes @ 0x20000000)
T405C 001:229.778 - 3.811ms returns TRUE
T405C 001:229.808 JLINK_ReadReg(R15 (PC))
T405C 001:229.819 - 0.015ms returns 0x20000000
T405C 001:229.829 JLINK_ClrBPEx(BPHandle = 0x00000008)
T405C 001:229.837 - 0.011ms returns 0x00
T405C 001:229.846 JLINK_ReadReg(R0)
T405C 001:229.854 - 0.010ms returns 0x00000000
T405C 001:230.710 JLINK_WriteMem(0x20000188, 0x278 Bytes, ...)
T405C 001:230.723   Data:  00 F0 3E F8 01 21 01 60 88 1E 10 BD 8B 69 48 68 ...
T405C 001:230.750   CPU_WriteMem(632 bytes @ 0x20000188)
T405C 001:238.683 - 7.999ms returns 0x278
T405C 001:238.734 JLINK_WriteMem(0x20000400, 0x188 Bytes, ...)
T405C 001:238.743   Data:  1E 43 3E 60 08 4F 08 3F 3E 68 D1 F8 04 C0 9E 43 ...
T405C 001:238.762   CPU_WriteMem(392 bytes @ 0x20000400)
T405C 001:243.950 - 5.239ms returns 0x188
T405C 001:243.988 JLINK_HasError()
T405C 001:244.007 JLINK_WriteReg(R0, 0x08000C00)
T405C 001:244.019 - 0.016ms returns 0
T405C 001:244.029 JLINK_WriteReg(R1, 0x00000400)
T405C 001:244.037 - 0.011ms returns 0
T405C 001:244.122 JLINK_WriteReg(R2, 0x20000188)
T405C 001:244.138 - 0.020ms returns 0
T405C 001:244.149 JLINK_WriteReg(R3, 0x00000000)
T405C 001:244.157 - 0.011ms returns 0
T405C 001:244.166 JLINK_WriteReg(R4, 0x00000000)
T405C 001:244.173 - 0.010ms returns 0
T405C 001:244.182 JLINK_WriteReg(R5, 0x00000000)
T405C 001:244.189 - 0.010ms returns 0
T405C 001:244.198 JLINK_WriteReg(R6, 0x00000000)
T405C 001:244.205 - 0.010ms returns 0
T405C 001:244.217 JLINK_WriteReg(R7, 0x00000000)
T405C 001:244.230 - 0.016ms returns 0
T405C 001:244.239 JLINK_WriteReg(R8, 0x00000000)
T405C 001:244.246 - 0.010ms returns 0
T405C 001:244.255 JLINK_WriteReg(R9, 0x20000184)
T405C 001:244.263 - 0.010ms returns 0
T405C 001:244.271 JLINK_WriteReg(R10, 0x00000000)
T405C 001:244.279 - 0.010ms returns 0
T405C 001:244.287 JLINK_WriteReg(R11, 0x00000000)
T405C 001:244.295 - 0.010ms returns 0
T405C 001:244.303 JLINK_WriteReg(R12, 0x00000000)
T405C 001:244.311 - 0.010ms returns 0
T405C 001:244.319 JLINK_WriteReg(R13 (SP), 0x20001000)
T405C 001:244.327 - 0.011ms returns 0
T405C 001:244.336 JLINK_WriteReg(R14, 0x20000001)
T405C 001:244.343 - 0.010ms returns 0
T405C 001:244.352 JLINK_WriteReg(R15 (PC), 0x20000112)
T405C 001:244.360 - 0.011ms returns 0
T405C 001:244.369 JLINK_WriteReg(XPSR, 0x01000000)
T405C 001:244.376 - 0.010ms returns 0
T405C 001:244.385 JLINK_WriteReg(MSP, 0x20001000)
T405C 001:244.392 - 0.010ms returns 0
T405C 001:244.401 JLINK_WriteReg(PSP, 0x20001000)
T405C 001:244.408 - 0.010ms returns 0
T405C 001:244.417 JLINK_WriteReg(CFBP, 0x00000000)
T405C 001:244.424 - 0.010ms returns 0
T405C 001:244.433 JLINK_SetBPEx(Addr = 0x20000000, Type = 0xFFFFFFF2)
T405C 001:244.442 - 0.012ms returns 0x00000009
T405C 001:244.451 JLINK_Go()
T405C 001:244.474   CPU_ReadMem(4 bytes @ 0xE0001000)
T405C 001:248.486 - 4.089ms
T405C 001:248.562 JLINK_IsHalted()
T405C 001:249.255 - 0.715ms returns FALSE
T405C 001:249.299 JLINK_HasError()
T405C 001:256.101 JLINK_IsHalted()
T405C 001:259.607   CPU_ReadMem(2 bytes @ 0x20000000)
T405C 001:260.273 - 4.179ms returns TRUE
T405C 001:260.288 JLINK_ReadReg(R15 (PC))
T405C 001:260.300 - 0.015ms returns 0x20000000
T405C 001:260.310 JLINK_ClrBPEx(BPHandle = 0x00000009)
T405C 001:260.317 - 0.010ms returns 0x00
T405C 001:260.325 JLINK_ReadReg(R0)
T405C 001:260.332 - 0.009ms returns 0x00000000
T405C 001:261.061 JLINK_WriteMem(0x20000188, 0x278 Bytes, ...)
T405C 001:261.080   Data:  88 F8 00 70 D8 F8 00 00 00 F0 07 00 B0 42 54 D1 ...
T405C 001:261.096   CPU_WriteMem(632 bytes @ 0x20000188)
T405C 001:269.024 - 7.974ms returns 0x278
T405C 001:269.044 JLINK_WriteMem(0x20000400, 0x188 Bytes, ...)
T405C 001:269.052   Data:  00 1D 01 68 11 F0 0C 0F 08 D0 00 68 C0 F3 81 00 ...
T405C 001:269.068   CPU_WriteMem(392 bytes @ 0x20000400)
T405C 001:274.309 - 5.279ms returns 0x188
T405C 001:274.338 JLINK_HasError()
T405C 001:274.386 JLINK_WriteReg(R0, 0x08001000)
T405C 001:274.398 - 0.015ms returns 0
T405C 001:274.409 JLINK_WriteReg(R1, 0x00000400)
T405C 001:274.416 - 0.010ms returns 0
T405C 001:274.424 JLINK_WriteReg(R2, 0x20000188)
T405C 001:274.448 - 0.047ms returns 0
T405C 001:274.477 JLINK_WriteReg(R3, 0x00000000)
T405C 001:274.486 - 0.019ms returns 0
T405C 001:274.509 JLINK_WriteReg(R4, 0x00000000)
T405C 001:274.529 - 0.024ms returns 0
T405C 001:274.557 JLINK_WriteReg(R5, 0x00000000)
T405C 001:274.590 - 0.038ms returns 0
T405C 001:274.607 JLINK_WriteReg(R6, 0x00000000)
T405C 001:274.622 - 0.018ms returns 0
T405C 001:274.633 JLINK_WriteReg(R7, 0x00000000)
T405C 001:274.640 - 0.010ms returns 0
T405C 001:274.650 JLINK_WriteReg(R8, 0x00000000)
T405C 001:274.657 - 0.010ms returns 0
T405C 001:274.667 JLINK_WriteReg(R9, 0x20000184)
T405C 001:274.674 - 0.009ms returns 0
T405C 001:274.682 JLINK_WriteReg(R10, 0x00000000)
T405C 001:274.688 - 0.009ms returns 0
T405C 001:274.698 JLINK_WriteReg(R11, 0x00000000)
T405C 001:274.704 - 0.009ms returns 0
T405C 001:274.713 JLINK_WriteReg(R12, 0x00000000)
T405C 001:274.719 - 0.009ms returns 0
T405C 001:274.727 JLINK_WriteReg(R13 (SP), 0x20001000)
T405C 001:274.735 - 0.011ms returns 0
T405C 001:274.743 JLINK_WriteReg(R14, 0x20000001)
T405C 001:274.750 - 0.009ms returns 0
T405C 001:274.760 JLINK_WriteReg(R15 (PC), 0x20000112)
T405C 001:274.767 - 0.010ms returns 0
T405C 001:274.777 JLINK_WriteReg(XPSR, 0x01000000)
T405C 001:274.783 - 0.009ms returns 0
T405C 001:274.864 JLINK_WriteReg(MSP, 0x20001000)
T405C 001:274.880 - 0.019ms returns 0
T405C 001:274.892 JLINK_WriteReg(PSP, 0x20001000)
T405C 001:274.901 - 0.012ms returns 0
T405C 001:274.910 JLINK_WriteReg(CFBP, 0x00000000)
T405C 001:274.917 - 0.010ms returns 0
T405C 001:274.926 JLINK_SetBPEx(Addr = 0x20000000, Type = 0xFFFFFFF2)
T405C 001:274.947 - 0.025ms returns 0x0000000A
T405C 001:274.957 JLINK_Go()
T405C 001:274.977   CPU_ReadMem(4 bytes @ 0xE0001000)
T405C 001:278.697 - 3.749ms
T405C 001:278.720 JLINK_IsHalted()
T405C 001:279.223 - 0.511ms returns FALSE
T405C 001:279.240 JLINK_HasError()
T405C 001:284.204 JLINK_IsHalted()
T405C 001:287.681   CPU_ReadMem(2 bytes @ 0x20000000)
T405C 001:288.298 - 4.102ms returns TRUE
T405C 001:288.317 JLINK_ReadReg(R15 (PC))
T405C 001:288.328 - 0.014ms returns 0x20000000
T405C 001:288.339 JLINK_ClrBPEx(BPHandle = 0x0000000A)
T405C 001:288.346 - 0.010ms returns 0x00
T405C 001:288.355 JLINK_ReadReg(R0)
T405C 001:288.362 - 0.010ms returns 0x00000000
T405C 001:289.129 JLINK_WriteMem(0x20000188, 0x278 Bytes, ...)
T405C 001:289.141   Data:  81 42 56 D8 30 68 80 07 F4 D4 2F B1 DB F8 00 10 ...
T405C 001:289.168   CPU_WriteMem(632 bytes @ 0x20000188)
T405C 001:297.243 - 8.122ms returns 0x278
T405C 001:297.260 JLINK_WriteMem(0x20000400, 0x188 Bytes, ...)
T405C 001:297.267   Data:  84 F8 3C 80 0E E0 00 26 FA E7 80 21 20 46 00 F0 ...
T405C 001:297.285   CPU_WriteMem(392 bytes @ 0x20000400)
T405C 001:302.427 - 5.183ms returns 0x188
T405C 001:302.456 JLINK_HasError()
T405C 001:302.468 JLINK_WriteReg(R0, 0x08001400)
T405C 001:302.479 - 0.014ms returns 0
T405C 001:302.488 JLINK_WriteReg(R1, 0x00000400)
T405C 001:302.496 - 0.011ms returns 0
T405C 001:302.507 JLINK_WriteReg(R2, 0x20000188)
T405C 001:302.513 - 0.010ms returns 0
T405C 001:302.523 JLINK_WriteReg(R3, 0x00000000)
T405C 001:302.530 - 0.010ms returns 0
T405C 001:302.538 JLINK_WriteReg(R4, 0x00000000)
T405C 001:302.545 - 0.010ms returns 0
T405C 001:302.554 JLINK_WriteReg(R5, 0x00000000)
